! Created with skrf (http://scikit-rf.org).
# Hz S RI R 50.0 
!freq ReS11 ImS11
3000000.0 -0.00179798971 9.23601328e-06
3013506.7533766883 -0.00177606731 2.22258968e-05
3027013.5067533767 -0.00175341126 1.3861255e-05
3040520.260130065 -0.00177452411 -8.02495106e-06
3054027.0135067534 -0.00180312642 -1.87451533e-05
3067533.7668834417 -0.0018053127 1.12110774e-05
3081040.52026013 -0.00178845634 1.95604589e-05
3094547.2736368184 -0.00177319371 3.55858447e-06
3108054.0270135067 -0.00175980863 -2.32119896e-06
3121560.780390195 -0.00177352165 -2.32145394e-05
3135067.5337668834 -0.00179833197 5.59068349e-06
3148574.287143572 -0.00179060211 4.29059983e-05
3162081.04052026 -0.00177178311 2.34395102e-05
3175587.7938969485 -0.00176196685 -2.0822732e-05
3189094.547273637 -0.00177120615 -2.25956046e-05
3202601.300650325 -0.00181048468 -1.58301227e-05
3216108.0540270135 -0.00179695839 2.55427694e-05
3229614.807403702 -0.00177450234 2.96821636e-05
3243121.56078039 -0.00175733014 -1.23257569e-05
3256628.3141570785 -0.00179139746 -2.01328221e-05
3270135.067533767 -0.00181155908 9.17414764e-06
3283641.820910455 -0.00179829414 2.64221835e-05
3297148.5742871435 -0.00177797396 2.2003569e-05
3310655.327663832 -0.00176841486 1.28247684e-05
3324162.08104052 -0.00179949193 -2.40540376e-05
3337668.8344172086 -0.00179074006 6.54824453e-06
3351175.587793897 -0.00180996733 1.11176623e-05
3364682.3411705852 -0.00177597196 1.24440639e-05
3378189.0945472736 -0.00176178815 4.68252165e-06
3391695.847923962 -0.00175704481 8.30506622e-07
3405202.6013006503 -0.00179786072 -2.00477298e-05
3418709.3546773386 -0.00179799285 5.61452043e-06
3432216.108054027 -0.00178916624 1.77825386e-05
3445722.8614307153 -0.00176388165 3.51252675e-06
3459229.6148074036 -0.00176757562 -2.2187407e-05
3472736.368184092 -0.00179377734 -1.79142116e-05
3486243.1215607803 -0.00180786627 -4.96094117e-06
3499749.8749374687 -0.00178521173 1.20157065e-05
3513256.628314157 -0.00177597778 2.18386213e-05
3526763.3816908454 -0.00175474933 -1.92192928e-07
3540270.1350675337 -0.00178739801 -1.68166991e-06
3553776.888444222 -0.00178962818 -2.14886986e-05
3567283.6418209104 -0.00180713646 8.82750555e-06
3580790.3951975987 -0.0017854654 2.79872529e-05
3594297.148574287 -0.00177221536 1.19872902e-05
3607803.9019509754 -0.00176943454 -3.48293979e-05
3621310.6553276638 -0.00179880438 -2.54773204e-05
3634817.408704352 -0.00180649839 -1.00829593e-05
3648324.1620810404 -0.00179953407 1.81517189e-05
3661830.915457729 -0.00176749669 1.25711749e-05
3675337.668834417 -0.00177274249 -2.7125292e-05
3688844.4222111055 -0.00179546943 -1.91826111e-05
3702351.175587794 -0.00179811264 2.7450385e-06
3715857.928964482 -0.00178960094 2.44788043e-05
3729364.6823411705 -0.00175497308 8.32632486e-06
3742871.435717859 -0.00176963385 -1.55689231e-05
3756378.189094547 -0.00177200651 -2.4500594e-05
3769884.9424712355 -0.00180957769 -1.80410807e-05
3783391.695847924 -0.00180403842 1.4936556e-05
3796898.449224612 -0.00179088907 1.69740579e-05
3810405.2026013006 -0.00175557286 -1.14598915e-05
3823911.955977989 -0.0017838449 -2.87210278e-05
3837418.7093546772 -0.00179539528 -9.8105711e-06
3850925.4627313656 -0.0018042865 5.32410968e-06
3864432.216108054 -0.00177709979 2.11719525e-05
3877938.9694847423 -0.00176555559 4.76799551e-06
3891445.7228614306 -0.00177888654 -2.9495377e-05
3904952.476238119 -0.00181950652 -3.52208372e-05
3918459.2296148073 -0.00179680262 -5.83687324e-06
3931965.9829914956 -0.00178968604 5.95352913e-06
3945472.736368184 -0.00176393683 5.418819e-06
3958979.4897448723 -0.00177496602 -1.1694965e-05
3972486.2431215607 -0.00179298525 -2.52740265e-05
3985992.996498249 -0.00181860768 -5.55242536e-07
3999499.7498749373 -0.00178764947 1.53256806e-05
4013006.5032516257 -0.0017625622 1.03564489e-05
4026513.256628314 -0.0017684683 -8.10351139e-06
4040020.0100050024 -0.00177088485 -1.75376881e-05
4053526.7633816907 -0.00180242828 -1.32473115e-05
4067033.5167583795 -0.00180358149 6.71636553e-06
4080540.2701350674 -0.00177920808 1.54321169e-05
4094047.023511756 -0.00176160038 -4.77728918e-06
4107553.776888444 -0.00175938976 -1.67674807e-05
4121060.530265133 -0.00178990164 -2.57834781e-05
4134567.283641821 -0.00180979422 -3.5581067e-07
4148074.0370185096 -0.00177382189 2.12231498e-05
4161580.7903951975 -0.00176985585 -1.04681612e-05
4175087.5437718863 -0.00178035081 -2.89409509e-05
4188594.297148574 -0.00177549478 -2.13868389e-05
4202101.050525263 -0.00180912972 1.76542517e-06
4215607.803901951 -0.00179554685 1.17182253e-05
4229114.55727864 -0.00177667977 6.15230419e-06
4242621.3106553275 -0.00175136095 -1.74068082e-05
4256128.064032016 -0.00177107845 -3.05350259e-05
4269634.817408704 -0.00179397722 -3.83553233e-05
4283141.570785393 -0.00181943551 1.69866746e-06
4296648.324162081 -0.00177813636 2.05767101e-05
4310155.07753877 -0.00177096971 -1.13589895e-05
4323661.830915458 -0.00176759646 2.80228073e-06
4337168.584292146 -0.00179512438 -2.29989437e-05
4350675.337668834 -0.00180860038 1.49310799e-05
4364182.091045523 -0.00178958173 5.08461744e-06
4377688.844422211 -0.00177210546 8.05766194e-06
4391195.5977989 -0.00178297726 -2.71863773e-05
4404702.351175588 -0.00180016691 -3.45026347e-05
4418209.104552276 -0.0018046695 2.13963261e-07
4431715.857928964 -0.00177951762 2.25331064e-06
4445222.611305653 -0.00176938996 2.52331006e-06
4458729.364682341 -0.00177571957 -3.31045612e-06
4472236.11805903 -0.0017768885 -3.12773882e-05
4485742.871435718 -0.00180018425 -3.53282076e-06
4499249.6248124065 -0.00180578651 -1.00351281e-05
4512756.378189094 -0.00176402833 2.4631785e-05
4526263.131565783 -0.00176225754 4.15405111e-06
4539769.884942471 -0.00178019423 -3.17012964e-05
4553276.63831916 -0.00179502077 -2.61272635e-05
4566783.391695848 -0.00181340391 -1.24817534e-05
4580290.145072537 -0.0017762261 2.94690017e-05
4593796.898449224 -0.00177527056 -6.24997756e-06
4607303.651825913 -0.0017682428 -5.50456434e-07
4620810.405202601 -0.00179064472 -3.62229512e-05
4634317.15857929 -0.00180420768 -2.25860822e-05
4647823.911955978 -0.0017907531 7.65099776e-06
4661330.665332667 -0.00177829969 1.08869417e-05
4674837.4187093545 -0.00178579579 -2.24275591e-05
4688344.172086043 -0.00180018868 -3.33830467e-05
4701850.925462731 -0.00181177398 -6.84249699e-06
4715357.67883942 -0.00180058053 -5.35557911e-06
4728864.432216108 -0.00175774307 -2.33739829e-05
4742371.185592797 -0.00176532927 -3.44667387e-05
4755877.9389694845 -0.00180346554 -3.04881778e-05
4769384.692346173 -0.00180835265 -2.14175157e-06
4782891.445722861 -0.00178228226 6.48580817e-06
4796398.19909955 -0.00176854664 5.19564355e-06
4809904.952476238 -0.0017710937 -2.8100585e-05
4823411.705852927 -0.00179405638 -2.8325916e-05
4836918.459229615 -0.00180019089 1.11867894e-05
4850425.212606303 -0.00179626374 6.08965183e-06
4863931.965982991 -0.00176168804 4.30779619e-06
4877438.71935968 -0.00176625885 -2.18609712e-05
4890945.472736368 -0.00180500897 -3.79311023e-05
4904452.226113057 -0.00180598209 -1.19813585e-05
4917958.979489745 -0.00179264334 -2.17566981e-06
4931465.732866433 -0.00177817105 1.81357773e-05
4944972.486243121 -0.00176253763 -1.30884837e-05
4958479.23961981 -0.00177654426 -2.63570964e-05
4971985.992996498 -0.00178800267 -1.39818494e-05
4985492.746373187 -0.00179705967 -3.82329017e-06
4998999.499749875 -0.00178547448 -6.35096171e-07
5012506.2531265635 -0.00175371335 -1.30295793e-05
5026013.006503251 -0.00178336084 -2.11060178e-05
5039519.75987994 -0.00181191508 -2.94655256e-05
5053026.513256628 -0.00181757996 -7.99830559e-07
5066533.266633317 -0.00178942445 1.9377876e-05
5080040.020010005 -0.00176673336 -6.48409059e-06
5093546.773386694 -0.00176274369 -7.3126389e-06
5107053.526763381 -0.00178174791 -3.13466116e-05
5120560.28014007 -0.00180242874 -2.47436437e-05
5134067.033516759 -0.001801381 4.39060068e-06
5147573.786893447 -0.00179354195 1.23335813e-05
5161080.540270135 -0.0017799614 -3.08008384e-05
5174587.293646824 -0.00179657422 -4.05714927e-05
5188094.047023512 -0.00179819157 -2.61943169e-05
5201600.8004002 -0.00181201391 8.14007126e-06
5215107.553776888 -0.00176156918 2.27971418e-06
5228614.307153577 -0.00176476908 -4.8997199e-06
5242121.060530266 -0.00178358343 -2.48624401e-05
5255627.813906954 -0.00179147092 -1.83347256e-05
5269134.567283642 -0.00181193813 4.58332534e-06
5282641.32066033 -0.00179569784 6.16481293e-06
5296148.074037019 -0.00177522283 9.59448062e-06
5309654.827413707 -0.00176448526 -8.46118382e-06
5323161.580790395 -0.00178592687 -3.0684012e-05
5336668.334167084 -0.00180789421 -3.46170746e-05
5350175.0875437725 -0.00179765513 -1.40999628e-05
5363681.84092046 -0.00177615671 1.13103752e-05
5377188.594297148 -0.00176499889 -7.42614338e-06
5390695.347673837 -0.00177072885 -3.06584261e-05
5404202.101050526 -0.00180908467 -2.06195473e-05
5417708.854427214 -0.00179722044 3.89271918e-06
5431215.607803902 -0.00178622897 2.74046897e-06
5444722.3611805905 -0.00176219235 6.66515859e-07
5458229.114557279 -0.00179300061 -3.97448275e-05
5471735.867933967 -0.00179413485 -3.0475916e-05
5485242.621310655 -0.00181217934 -6.42001851e-06
5498749.374687344 -0.00178975961 -3.75585682e-06
5512256.128064033 -0.0017799678 4.36748996e-06
5525762.8814407205 -0.00176012132 -3.01491855e-06
5539269.634817408 -0.00178085524 -3.42151106e-05
5552776.388194097 -0.00180093478 -3.11165204e-05
5566283.141570786 -0.0018074956 -6.27755071e-06
5579789.894947474 -0.00178826659 1.44761098e-05
5593296.648324162 -0.00177011674 -6.99084103e-06
5606803.401700851 -0.00175478484 -1.69408977e-05
5620310.155077539 -0.00178446318 -2.73459755e-05
5633816.908454227 -0.00179598923 -2.62383746e-05
5647323.661830915 -0.00179955491 1.1697939e-05
5660830.415207604 -0.00176986761 1.73977769e-05
5674337.168584293 -0.00176963909 -1.35234332e-05
5687843.921960981 -0.00178728218 -1.80925708e-05
5701350.6753376685 -0.00179401727 -2.52187856e-05
5714857.428714357 -0.00178805832 2.56019439e-06
5728364.182091046 -0.00178840628 1.92395073e-05
5741870.935467734 -0.00176225591 9.12908035e-06
5755377.688844422 -0.00175831153 -1.55740618e-05
5768884.442221111 -0.00178269262 -4.3341166e-05
5782391.1955977995 -0.00180083734 -2.40569079e-05
5795897.948974487 -0.00179030863 -1.14922686e-05
5809404.702351175 -0.0017891383 2.94922665e-06
5822911.455727864 -0.00175085734 1.45705371e-05
5836418.209104553 -0.00175734586 -2.61900041e-05
5849924.962481241 -0.00178158341 -1.96313304e-05
5863431.715857929 -0.00179654837 -1.7364493e-05
5876938.469234617 -0.00180442946 1.81884877e-06
5890445.222611306 -0.00179109315 1.85262306e-05
5903951.975987994 -0.00176703662 -1.13140386e-05
5917458.729364682 -0.00177499105 -2.35394073e-05
5930965.482741371 -0.00179552438 -3.43526881e-05
5944472.23611806 -0.00180602388 1.29965554e-06
5957978.9894947475 -0.0017960784 1.03181137e-05
5971485.742871435 -0.00178161834 1.63898073e-06
5984992.496248124 -0.00175688998 1.25518391e-05
5998499.249624813 -0.00175887265 -3.59396217e-05
6012006.003001501 -0.00179083098 -4.37753151e-05
6025512.756378189 -0.00179159455 -6.98938584e-06
6039019.509754878 -0.00179406872 5.759739e-06
6052526.263131566 -0.00177042943 4.18476975e-06
6066033.016508254 -0.00174956932 -3.68076471e-05
6079539.769884942 -0.00180361082 -1.70265066e-05
6093046.523261631 -0.00180843822 9.11024586e-07
6106553.27663832 -0.00179481017 4.52896103e-07
6120060.030015008 -0.00178003369 -1.28222928e-06
6133566.7833916955 -0.00175646169 1.03240118e-05
6147073.536768384 -0.00176252064 -1.85436802e-05
6160580.290145073 -0.00179271796 -4.26201514e-05
6174087.043521761 -0.00180530071 1.75283549e-06
6187593.796898449 -0.00177343714 2.44992825e-05
6201100.550275138 -0.0017726986 -3.52178495e-06
6214607.303651826 -0.00175969931 -6.80785161e-06
6228114.057028514 -0.00176601147 -1.30039798e-05
6241620.810405202 -0.00177735451 5.37711867e-06
6255127.563781891 -0.00179445429 6.94289247e-06
6268634.31715858 -0.00177223131 1.55372545e-05
6282141.070535268 -0.00175754505 2.52262134e-06
6295647.823911956 -0.00176271028 -2.74793983e-05
6309154.577288644 -0.00179065147 -1.6653541e-05
6322661.330665333 -0.00179091026 4.80901463e-06
6336168.084042021 -0.00178516249 2.736842e-05
6349674.837418709 -0.00176545512 1.39269787e-06
6363181.590795398 -0.00175122032 -1.79225606e-06
6376688.344172087 -0.00178276619 -2.04501721e-05
6390195.097548774 -0.0017893475 -8.56374481e-06
6403701.850925462 -0.0017800749 1.92843836e-05
6417208.604302151 -0.00177659211 8.34151251e-06
6430715.35767884 -0.00174956431 2.08368238e-05
6444222.111055528 -0.00176970765 -2.4783285e-05
6457728.864432216 -0.00178922573 -4.32467414e-06
6471235.6178089045 -0.00178679603 1.88258637e-05
6484742.371185593 -0.00177341828 1.65642687e-05
6498249.124562281 -0.00174958073 2.67424348e-05
6511755.877938969 -0.00175224396 -1.00866473e-05
6525262.631315658 -0.00177422352 -2.27757318e-05
6538769.384692347 -0.00178004161 1.52644698e-05
6552276.138069035 -0.00177747046 1.6082482e-05
6565782.891445722 -0.0017385825 2.7536702e-05
6579289.644822411 -0.00173713884 -1.54668287e-05
6592796.3981991 -0.00175989745 -1.2685201e-05
6606303.151575788 -0.0017798366 1.94842323e-06
6619809.904952476 -0.00178187469 1.66579612e-05
6633316.658329165 -0.00174474868 1.49665411e-05
6646823.411705853 -0.00174868235 6.35260994e-06
6660330.165082541 -0.00173601066 -1.1976028e-05
6673836.918459229 -0.00176536839 -3.01806904e-05
6687343.671835918 -0.00177259196 -4.47698721e-06
6700850.425212607 -0.00175121683 2.04820644e-05
6714357.178589295 -0.00173158234 6.35470315e-06
6727863.931965983 -0.001724159 -5.43524129e-06
6741370.685342671 -0.00173955329 -1.34900629e-05
6754877.43871936 -0.00175476098 -3.17816994e-05
6768384.192096048 -0.00176436955 -6.60386013e-06
6781890.945472736 -0.00172404165 8.53123311e-06
6795397.698849425 -0.00172000099 -1.57593206e-06
6808904.4522261135 -0.00173429179 -2.90744247e-05
6822411.205602801 -0.00174710923 -2.85866772e-05
6835917.958979489 -0.00177055225 -9.41129747e-06
6849424.712356178 -0.00173286104 -1.16404117e-05
6862931.465732867 -0.00172030565 -2.74280628e-05
6876438.219109555 -0.0017235009 -3.67635403e-05
6889944.972486243 -0.00175463618 -4.12045447e-05
6903451.725862931 -0.00175827625 -5.01706054e-05
6916958.47923962 -0.00175184722 -1.8637942e-05
6930465.232616308 -0.00173663057 -1.58557959e-05
6943971.985992996 -0.00172229484 -4.21909717e-05
6957478.739369685 -0.00172606576 -4.33589921e-05
6970985.492746374 -0.00175721757 -6.60862061e-05
6984492.2461230615 -0.00177676743 -4.25808939e-05
6997998.999499749 -0.00176629436 -2.57350948e-05
7011505.752876438 -0.00174670771 -3.59868754e-05
7025012.506253127 -0.00174175389 -4.19945645e-05
7038519.259629815 -0.00173491542 -6.29507049e-05
7052026.013006503 -0.00177067739 -4.97211622e-05
7065532.766383192 -0.00176536094 -3.22623346e-05
7079039.51975988 -0.00176581298 -3.71908136e-05
7092546.273136568 -0.0017447595 -1.91630006e-05
7106053.026513256 -0.00175272045 -4.58002178e-05
7119559.779889945 -0.0017753375 -5.74603691e-05
7133066.533266634 -0.00177206472 -4.04710081e-05
7146573.286643322 -0.00176558876 -2.37481145e-05
7160080.0400200095 -0.00173098897 -2.05299839e-05
7173586.793396698 -0.00173757295 -6.04114539e-05
7187093.546773387 -0.0017556306 -5.94522935e-05
7200600.300150075 -0.00178514072 -6.77486096e-05
7214107.053526764 -0.00179236243 -2.47652097e-05
7227613.806903452 -0.00176188012 -2.92978311e-05
7241120.5602801405 -0.00174187729 -4.42644086e-05
7254627.313656828 -0.00174594717 -5.5860819e-05
7268134.067033517 -0.00175792759 -5.43643255e-05
7281640.820410205 -0.00178286701 -5.94923695e-05
7295147.573786894 -0.00177674741 -2.23276184e-05
7308654.327163582 -0.00175088318 -1.46584789e-05
7322161.080540271 -0.00174240221 -5.39970097e-05
7335667.833916958 -0.00174585648 -5.37874148e-05
7349174.587293647 -0.00177495577 -6.4024287e-05
7362681.340670335 -0.00180097669 -4.39163268e-05
7376188.094047024 -0.0017741007 -2.89094896e-05
7389694.847423712 -0.0017371804 -4.43201097e-05
7403201.600800401 -0.0017382392 -7.06114588e-05
7416708.3541770885 -0.00175791129 -7.9185229e-05
7430215.107553777 -0.00177794299 -5.66008239e-05
7443721.860930465 -0.00176859903 -2.80840759e-05
7457228.614307154 -0.00175766763 -2.66566349e-05
7470735.367683842 -0.0017422227 -5.91065909e-05
7484242.121060531 -0.0017784615 -6.02236869e-05
7497748.8744372185 -0.00179335254 -5.81671411e-05
7511255.627813907 -0.00176430319 -3.15222642e-05
7524762.381190595 -0.00175056176 -3.11580006e-05
7538269.134567284 -0.00174537592 -4.98584923e-05
7551775.887943972 -0.00176232471 -8.43739035e-05
7565282.641320661 -0.00178461685 -5.25058313e-05
7578789.394697349 -0.0017840775 -5.48190692e-05
7592296.148074037 -0.00176152051 -5.30137331e-05
7605802.901450725 -0.00175048609 -2.84296802e-05
7619309.654827414 -0.00175674388 -5.93833793e-05
7632816.408204102 -0.00175833516 -7.07821091e-05
7646323.161580791 -0.00180843764 -5.44046561e-05
7659829.914957479 -0.00177644996 -3.96367213e-05
7673336.668334167 -0.00177787966 -1.8983199e-05
7686843.421710855 -0.00173992151 -5.06353463e-05
7700350.175087544 -0.00174675789 -6.70935333e-05
7713856.928464232 -0.00177964952 -7.93276849e-05
7727363.681840921 -0.00178418902 -4.32602901e-05
7740870.435217609 -0.00178750325 -4.16067487e-05
7754377.1885942975 -0.00176516094 -1.93118303e-05
7767883.941970985 -0.00174853508 -5.41066256e-05
7781390.695347674 -0.00176054763 -7.65363729e-05
7794897.448724362 -0.00178649416 -7.78884933e-05
7808404.202101051 -0.00178585912 -4.5462697e-05
7821910.955477739 -0.00176612101 -4.120429e-05
7835417.708854428 -0.00174951577 -3.96967334e-05
7848924.462231115 -0.00174976001 -5.52650854e-05
7862431.215607804 -0.00178075267 -6.68002904e-05
7875937.968984492 -0.00179187523 -6.56946722e-05
7889444.722361181 -0.0017941728 -4.8945014e-05
7902951.475737869 -0.00176850334 -8.07136894e-06
7916458.229114558 -0.00176919752 -3.55715783e-05
7929964.9824912455 -0.00175653084 -7.01587051e-05
7943471.735867934 -0.00176396605 -8.92178577e-05
7956978.489244622 -0.00180180371 -4.61983036e-05
7970485.242621311 -0.00178623886 -3.98244774e-05
7983991.995997999 -0.00176156242 -4.60906303e-05
7997498.749374688 -0.0017455701 -4.8612008e-05
8011005.502751376 -0.00178265804 -2.54719816e-05
8024512.256128064 -0.00175703934 -4.61824784e-05
8038019.009504752 -0.0017599737 -6.78306533e-05
8051525.762881441 -0.00177327124 -6.67604181e-05
8065032.516258129 -0.00178202125 -5.66842791e-05
8078539.269634818 -0.0017937253 -3.35509976e-05
8092046.023011506 -0.0017623239 -3.32295858e-05
8105552.776388194 -0.00175145769 -3.48421345e-05
8119059.529764882 -0.00175942946 -8.4443076e-05
8132566.283141571 -0.0017807245 -6.55991753e-05
8146073.036518259 -0.00180321268 -6.72038732e-05
8159579.789894948 -0.00176916062 -4.00345234e-05
8173086.543271636 -0.00173857645 -4.58782451e-05
8186593.2966483245 -0.00177078322 -7.33136985e-05
8200100.050025012 -0.00177658268 -7.47511949e-05
8213606.803401701 -0.00177388103 -6.68299253e-05
8227113.556778389 -0.00178212603 -3.75145173e-05
8240620.310155078 -0.00175304862 -3.25116489e-05
8254127.063531766 -0.00173766445 -4.56076814e-05
8267633.8169084545 -0.001781723 -6.89130975e-05
8281140.570285142 -0.00179946166 -6.63542014e-05
8294647.323661831 -0.00178496796 -5.3575026e-05
8308154.077038519 -0.00175645237 -2.90300013e-05
8321660.830415208 -0.00174294959 -6.26459077e-05
8335167.583791896 -0.00178315409 -6.77965218e-05
8348674.337168585 -0.00179526897 -5.63709509e-05
8362181.090545272 -0.00179910136 -4.36589216e-05
8375687.843921961 -0.00177100266 -3.6454112e-05
8389194.597298648 -0.00174951996 -4.24618702e-05
8402701.350675337 -0.00177899539 -6.87809224e-05
8416208.104052026 -0.00177979725 -9.68399545e-05
8429714.857428715 -0.00178211287 -6.30988943e-05
8443221.610805403 -0.00181326596 -5.99512168e-05
8456728.364182092 -0.00179112703 -5.30876714e-05
8470235.11755878 -0.00174839748 -4.19841745e-05
8483741.870935468 -0.00175733177 -5.6603043e-05
8497248.624312155 -0.00178092928 -7.81751587e-05
8510755.377688844 -0.00178799615 -6.15031604e-05
8524262.131065533 -0.00178282557 -4.78186157e-05
