! Created with skrf (http://scikit-rf.org).
# Hz S RI R 50.0 
!freq ReS11 ImS11
3000000.0 0.0792887211 -0.0011972643
3013506.7533766883 0.0792650282 -0.00121093169
3027013.5067533767 0.0792636126 -0.00116823916
3040520.260130065 0.0792850778 -0.0011697124
3054027.0135067534 0.0793214738 -0.00119122351
3067533.7668834417 0.0793082267 -0.00120233279
3081040.52026013 0.0792634338 -0.00119555823
3094547.2736368184 0.079266876 -0.00119520992
3108054.0270135067 0.0792721733 -0.00117906311
3121560.780390195 0.079315044 -0.00119356031
3135067.5337668834 0.0793123767 -0.00121514208
3148574.287143572 0.0792723745 -0.00122361572
3162081.04052026 0.0792580992 -0.00119880866
3175587.7938969485 0.0792928115 -0.00119401549
3189094.547273637 0.0792976245 -0.00121434068
3202601.300650325 0.0793052018 -0.00122659875
3216108.0540270135 0.0792812407 -0.00124750868
3229614.807403702 0.0792788491 -0.00122568454
3243121.56078039 0.0792802945 -0.00121679192
3256628.3141570785 0.079301253 -0.00121165672
3270135.067533767 0.0792945251 -0.00125306658
3283641.820910455 0.0792965218 -0.00125752704
3297148.5742871435 0.079274103 -0.00124622427
3310655.327663832 0.0792661011 -0.00123476319
3324162.08104052 0.0792938396 -0.00123938767
3337668.8344172086 0.0792971626 -0.00126509031
3351175.587793897 0.0792792067 -0.00127319421
3364682.3411705852 0.0792648643 -0.00127164403
3378189.0945472736 0.0792644024 -0.00124679157
3391695.847923962 0.0792835653 -0.00123170624
3405202.6013006503 0.0793082938 -0.00125933078
3418709.3546773386 0.0793140307 -0.00128702947
3432216.108054027 0.0792563036 -0.00129435281
3445722.8614307153 0.0792688057 -0.00126125524
3459229.6148074036 0.0792833567 -0.00125662761
3472736.368184092 0.0792942792 -0.00125726429
3486243.1215607803 0.0792870447 -0.0013122604
3499749.8749374687 0.0792622715 -0.00130436604
3513256.628314157 0.0792584121 -0.00129692873
3526763.3816908454 0.079264015 -0.00128681271
3540270.1350675337 0.0792838112 -0.00127783068
3553776.888444222 0.0792973861 -0.00130808062
3567283.6418209104 0.0792845562 -0.0013345601
3580790.3951975987 0.0792622492 -0.00131256972
3594297.148574287 0.0792610645 -0.00130039535
3607803.9019509754 0.0792858154 -0.00127464719
3621310.6553276638 0.0792971402 -0.00130919728
3634817.408704352 0.0792789608 -0.00133555278
3648324.1620810404 0.0792667866 -0.00132130843
3661830.915457729 0.0792426765 -0.00130823837
3675337.668834417 0.079289116 -0.00128671003
3688844.4222111055 0.0792984664 -0.00133863231
3702351.175587794 0.0792789608 -0.00135109399
3715857.928964482 0.0792622715 -0.00133896526
3729364.6823411705 0.0792637542 -0.00132921117
3742871.435717859 0.0792796984 -0.00131995534
3756378.189094547 0.0792926699 -0.00133115181
3769884.9424712355 0.0792924762 -0.00133535021
3783391.695847924 0.0792695135 -0.00135134207
3796898.449224612 0.0792554021 -0.0013584767
3810405.2026013006 0.0792443752 -0.0013307269
3823911.955977989 0.0792867318 -0.00132996985
3837418.7093546772 0.0792957246 -0.00135093776
3850925.4627313656 0.0792656094 -0.00137923902
3864432.216108054 0.0792513266 -0.001365187
3877938.9694847423 0.0792693868 -0.00133023039
3891445.7228614306 0.0792811811 -0.00135929673
3904952.476238119 0.0793130025 -0.00136738096
3918459.2296148073 0.0792596042 -0.00138315069
3931965.9829914956 0.0792339668 -0.00138813606
3945472.736368184 0.0792379975 -0.00136696559
3958979.4897448723 0.0792728961 -0.00135898893
3972486.2431215607 0.0792853907 -0.00138013589
3985992.996498249 0.0792598128 -0.00140651723
3999499.7498749373 0.0792470649 -0.0013814905
4013006.5032516257 0.0792713165 -0.00137258868
4026513.256628314 0.0792754218 -0.00137588638
4040020.0100050024 0.0792812705 -0.00141945865
4053526.7633816907 0.0792562515 -0.00140888838
4067033.5167583795 0.0792481229 -0.001407017
4080540.2701350674 0.0792706385 -0.00139713893
4094047.023511756 0.079278551 -0.00140089099
4107553.776888444 0.0792818144 -0.00141660403
4121060.530265133 0.0792561918 -0.00145818212
4134567.283641821 0.0792475343 -0.00141871185
4148074.0370185096 0.0792482495 -0.00140279916
4161580.7903951975 0.0792700797 -0.00139309175
4175087.5437718863 0.0792959034 -0.00144056114
4188594.297148574 0.0792748109 -0.00143826706
4202101.050525263 0.0792414173 -0.00144292822
4215607.803901951 0.0792416632 -0.00142087741
4229114.55727864 0.0792750567 -0.00142201025
4242621.3106553275 0.079278551 -0.00143587578
4256128.064032016 0.0792830139 -0.00145361153
4269634.817408704 0.0792661235 -0.00146747695
4283141.570785393 0.0792370215 -0.00144267851
4296648.324162081 0.079258576 -0.00140661793
4310155.07753877 0.0792752355 -0.00144131808
4323661.830915458 0.0792803466 -0.00146726018
4337168.584292146 0.0792710483 -0.00146176002
4350675.337668834 0.0792446509 -0.00145362853
4364182.091045523 0.0792445242 -0.00144760578
4377688.844422211 0.0792644471 -0.00143658277
4391195.5977989 0.0792551041 -0.00147602882
4404702.351175588 0.0792647302 -0.00148755731
4418209.104552276 0.0792408213 -0.00149263127
4431715.857928964 0.0792460293 -0.00146613282
4445222.611305653 0.0792509913 -0.00145779597
4458729.364682341 0.0792854428 -0.00145733496
4472236.11805903 0.0792758688 -0.00149249297
4485742.871435718 0.0792522505 -0.00149824179
4499249.6248124065 0.0792462304 -0.0014823525
4512756.378189094 0.0792419612 -0.00147980743
4526263.131565783 0.0792715847 -0.00148150395
4539769.884942471 0.0792613849 -0.0015033473
4553276.63831916 0.0792553723 -0.00150991313
4566783.391695848 0.0792429447 -0.00151798152
4580290.145072537 0.0792352259 -0.00148676184
4593796.898449224 0.0792572126 -0.00148421084
4607303.651825913 0.0792681277 -0.00151018053
4620810.405202601 0.0792639405 -0.00153378095
4634317.15857929 0.0792396516 -0.00153429841
4647823.911955978 0.0792277381 -0.00151118415
4661330.665332667 0.0792470723 -0.00150504208
4674837.4187093545 0.0792595148 -0.00153675897
4688344.172086043 0.0792579576 -0.00155509193
4701850.925462731 0.0792380273 -0.00153085706
4715357.67883942 0.0792280957 -0.00151712855
4728864.432216108 0.0792578161 -0.0015254902
4742371.185592797 0.0792596936 -0.00153906341
4755877.9389694845 0.0792454556 -0.00154533633
4769384.692346173 0.0792011619 -0.00154558255
4782891.445722861 0.0792370439 -0.00152405049
4796398.19909955 0.0792541429 -0.00152969221
4809904.952476238 0.0792653039 -0.00155089039
4823411.705852927 0.079248935 -0.00155590638
4836918.459229615 0.0792080685 -0.00154545996
4850425.212606303 0.0792405978 -0.00152785203
4863931.965982991 0.0792540684 -0.00154892728
4877438.71935968 0.0792534947 -0.00156682695
4890945.472736368 0.0792533979 -0.00158090284
4904452.226113057 0.0792369097 -0.00157928083
4917958.979489745 0.0792254657 -0.00155514118
4931465.732866433 0.0792229995 -0.00155585969
4944972.486243121 0.079252243 -0.00156758819
4958479.23961981 0.0792435184 -0.00158658181
4971985.992996498 0.0792417601 -0.00159546582
4985492.746373187 0.0792315155 -0.00158983713
4998999.499749875 0.0792193934 -0.00157301349
5012506.2531265635 0.079244554 -0.00156161829
5026013.006503251 0.0792505369 -0.00160294818
5039519.75987994 0.0792292729 -0.00162155821
5053026.513256628 0.0792253688 -0.00158639834
5066533.266633317 0.0792293698 -0.00158250146
5080040.020010005 0.0792488828 -0.00158479181
5093546.773386694 0.079260543 -0.00159933523
5107053.526763381 0.0792522207 -0.00161085185
5120560.28014007 0.0792153701 -0.00162658363
5134067.033516759 0.0792098716 -0.00160949829
5147573.786893447 0.0792281702 -0.00159637653
5161080.540270135 0.0792500749 -0.00162585988
5174587.293646824 0.079248175 -0.00163762167
5188094.047023512 0.0792250559 -0.00162308803
5201600.8004002 0.0792095289 -0.0016077453
5215107.553776888 0.0792331025 -0.0016057014
5228614.307153577 0.0792375952 -0.00162424927
5242121.060530266 0.0792565942 -0.00163530058
5255627.813906954 0.079222776 -0.00164587109
5269134.567283642 0.0792045295 -0.00161260983
5282641.32066033 0.0792169198 -0.00162415125
5296148.074037019 0.0792262405 -0.00161723734
5309654.827413707 0.0792447925 -0.00162532064
5323161.580790395 0.0792352408 -0.00166557007
5336668.334167084 0.0792103335 -0.00167135114
5350175.0875437725 0.0792220384 -0.00164511777
5363681.84092046 0.0792292356 -0.00162493344
5377188.594297148 0.07923536 -0.00164459238
5390695.347673837 0.0792284682 -0.00165722717
5404202.101050526 0.0792151541 -0.00166912132
5417708.854427214 0.0792051181 -0.00165292446
5431215.607803902 0.0792272985 -0.00164862059
5444722.3611805905 0.0792378932 -0.00165260036
5458229.114557279 0.0792534724 -0.0016781122
5471735.867933967 0.0792253688 -0.00167986169
5485242.621310655 0.0792240724 -0.0016904847
5498749.374687344 0.0792173743 -0.00167319539
5512256.128064033 0.079230085 -0.00165440899
5525762.8814407205 0.0792458057 -0.0016813518
5539269.634817408 0.0792331994 -0.00169444759
5552776.388194097 0.0792174488 -0.0016852835
5566283.141570786 0.079210408 -0.00168425252
5579789.894947474 0.0792202801 -0.00165804999
5593296.648324162 0.0792404562 -0.00167852861
5606803.401700851 0.0792371035 -0.00170255767
5620310.155077539 0.0792284161 -0.00170953153
5633816.908454227 0.07919956 -0.00172254746
5647323.661830915 0.0791936889 -0.00168864825
5660830.415207604 0.0792248026 -0.00169376726
5674337.168584293 0.0792366341 -0.00169345504
5687843.921960981 0.0792200267 -0.00172826287
5701350.6753376685 0.0792015791 -0.00172577577
5714857.428714357 0.0791989118 -0.00170633616
5728364.182091046 0.0792023093 -0.00169735483
5741870.935467734 0.0792230591 -0.00170707784
5755377.688844422 0.0792295858 -0.00171533762
5768884.442221111 0.0792345777 -0.00174034911
5782391.1955977995 0.0792068988 -0.00174440013
5795897.948974487 0.0792108923 -0.00171025796
5809404.702351175 0.0792139098 -0.00168988714
5822911.455727864 0.0792261884 -0.00170301134
5836418.209104553 0.0792359561 -0.00172237866
5849924.962481241 0.0792365372 -0.00175546098
5863431.715857929 0.0792008862 -0.00174957491
5876938.469234617 0.0791966319 -0.00170677667
5890445.222611306 0.079203859 -0.00171368243
5903951.975987994 0.0792323351 -0.00172735297
5917458.729364682 0.0792399719 -0.00174433319
5930965.482741371 0.0792152286 -0.00175828661
5944472.23611806 0.0792180896 -0.00174405403
5957978.9894947475 0.0792087466 -0.00173651276
5971485.742871435 0.0792203024 -0.0017193302
5984992.496248124 0.079225868 -0.00172893133
5998499.249624813 0.0792335197 -0.00173930102
6012006.003001501 0.079224579 -0.00176171865
6025512.756378189 0.0791984499 -0.00174965791
6039019.509754878 0.0792016312 -0.00174099626
6052526.263131566 0.0792412981 -0.0017443574
6066033.016508254 0.0792389661 -0.00174227543
6079539.769884942 0.0792289674 -0.00178503059
6093046.523261631 0.0791907087 -0.00176686898
6106553.27663832 0.0791991651 -0.00176577899
6120060.030015008 0.0792126358 -0.00173954212
6133566.7833916955 0.0792430416 -0.00176045427
6147073.536768384 0.0792511329 -0.00176109397
6160580.290145073 0.0792343915 -0.00176847109
6174087.043521761 0.0792207569 -0.00175356795
6187593.796898449 0.0792310312 -0.00173548714
6201100.550275138 0.0792222992 -0.00172378065
6214607.303651826 0.0792374238 -0.00172382453
6228114.057028514 0.0792641416 -0.00177157472
6241620.810405202 0.0792093351 -0.00174728513
6255127.563781891 0.0792080909 -0.00172079215
6268634.31715858 0.0792398453 -0.00172033079
6282141.070535268 0.0792598203 -0.00172228436
6295647.823911956 0.0792568177 -0.00174052676
6309154.577288644 0.0792554095 -0.00174580771
6322661.330665333 0.0792413354 -0.00172677031
6336168.084042021 0.0792346448 -0.00169001787
6349674.837418709 0.0792586058 -0.00169174816
6363181.590795398 0.0792739838 -0.00169568369
6376688.344172087 0.0792598128 -0.00171695999
6390195.097548774 0.0792683065 -0.0017032054
6403701.850925462 0.0792720392 -0.00166442245
6417208.604302151 0.0792897642 -0.00165252027
6430715.35767884 0.0793189928 -0.00165950414
6444222.111055528 0.0793241858 -0.00167961896
6457728.864432216 0.0793306306 -0.00165747479
6471235.6178089045 0.079325363 -0.00162932323
6484742.371185593 0.0793535337 -0.00161755411
6498249.124562281 0.0793847069 -0.00161114649
6511755.877938969 0.0793956742 -0.00161340891
6525262.631315658 0.0793997422 -0.00160011509
6538769.384692347 0.0793908238 -0.00160752167
6552276.138069035 0.0794210657 -0.00157875929
6565782.891445722 0.0794626102 -0.00156754151
6579289.644822411 0.0794988945 -0.00158419402
6592796.3981991 0.0794973522 -0.00161315454
6606303.151575788 0.0795178041 -0.00161546876
6619809.904952476 0.0795236155 -0.00162346393
6633316.658329165 0.0795417801 -0.00162071991
6646823.411705853 0.079583399 -0.0016551665
6660330.165082541 0.0795799494 -0.00169166375
6673836.918459229 0.0795657933 -0.0017399746
6687343.671835918 0.079567112 -0.00175050506
6700850.425212607 0.079600729 -0.00178061856
6714357.178589295 0.0795961544 -0.00178790616
6727863.931965983 0.079604663 -0.00183086982
6741370.685342671 0.0795805156 -0.00187337724
6754877.43871936 0.0795694813 -0.00188290991
6768384.192096048 0.0795420781 -0.00192499254
6781890.945472736 0.0795608759 -0.00191355438
6795397.698849425 0.0795544013 -0.00192510174
6808904.4522261135 0.0795390308 -0.00197135028
6822411.205602801 0.0795269608 -0.00198681233
6835917.958979489 0.0794989914 -0.00199222192
6849424.712356178 0.0794965327 -0.00197327626
6862931.465732867 0.0794957057 -0.00196695072
6876438.219109555 0.0795027763 -0.00201788195
6889944.972486243 0.0794795752 -0.00203251047
6903451.725862931 0.0794510916 -0.00202581147
6916958.47923962 0.079444617 -0.00202149292
6930465.232616308 0.0794587582 -0.00202463917
6943971.985992996 0.0794401094 -0.00202666619
6957478.739369685 0.0794398338 -0.00205111085
6970985.492746374 0.0794209391 -0.00204230356
6984492.2461230615 0.0793966576 -0.0020436598
6997998.999499749 0.0793978423 -0.00204131706
7011505.752876438 0.0794140324 -0.00202633231
7025012.506253127 0.0794156715 -0.00204075221
7038519.259629815 0.0794085339 -0.00207614899
7052026.013006503 0.0793779492 -0.0020721273
7065532.766383192 0.0793599561 -0.00203380152
7079039.51975988 0.0793794617 -0.00204570568
7092546.273136568 0.07936088 -0.00202987972
7106053.026513256 0.0793758631 -0.00206364202
7119559.779889945 0.0793492198 -0.00207225233
7133066.533266634 0.0793368071 -0.00205826829
7146573.286643322 0.0793407485 -0.00204160088
7160080.0400200095 0.0793521702 -0.0020479518
7173586.793396698 0.0793707967 -0.00206103781
7187093.546773387 0.079347983 -0.0020770824
7200600.300150075 0.0793483928 -0.00207319437
7214107.053526764 0.0793124959 -0.00205444032
7227613.806903452 0.0793325603 -0.00205591484
7241120.5602801405 0.0793267488 -0.00206581224
7254627.313656828 0.0793396756 -0.00207202393
7268134.067033517 0.0793281272 -0.00209667487
7281640.820410205 0.0793039501 -0.00207903213
7295147.573786894 0.0793121457 -0.0020720039
7308654.327163582 0.079330571 -0.00206735125
7322161.080540271 0.0793328136 -0.002090686
7335667.833916958 0.079327926 -0.00209539244
7349174.587293647 0.0793047324 -0.00211512716
7362681.340670335 0.079307884 -0.00208541029
7376188.094047024 0.079296805 -0.00207994832
7389694.847423712 0.0793192312 -0.00208998565
7403201.600800401 0.0793268308 -0.00211784313
7416708.3541770885 0.0793137699 -0.00212543085
7430215.107553777 0.0792857483 -0.00210432638
7443721.860930465 0.0792763233 -0.00208791718
7457228.614307154 0.0793077797 -0.00208408176
7470735.367683842 0.0793078691 -0.00211700425
7484242.121060531 0.0792901143 -0.00212951167
7497748.8744372185 0.0792900547 -0.00212243805
7511255.627813907 0.0792901218 -0.00210865145
7524762.381190595 0.0793055743 -0.00212183781
7538269.134567284 0.0793228 -0.00212602015
7551775.887943972 0.0793043599 -0.00213957485
7565282.641320661 0.079267703 -0.00213599508
7578789.394697349 0.0792829767 -0.00213163649
7592296.148074037 0.0792881772 -0.00212634192
7605802.901450725 0.0792807415 -0.00211210409
7619309.654827414 0.0793057531 -0.00213516806
7632816.408204102 0.0793049484 -0.00215561478
7646323.161580791 0.0792767107 -0.00214535859
7659829.914957479 0.0792716667 -0.00214128289
7673336.668334167 0.0792746022 -0.00214236928
7686843.421710855 0.0792828202 -0.00213507959
7700350.175087544 0.0792964622 -0.00215545716
7713856.928464232 0.0792724714 -0.00217493949
7727363.681840921 0.079267405 -0.00217023096
7740870.435217609 0.0792549103 -0.00215016399
7754377.1885942975 0.0792663991 -0.00214085123
7767883.941970985 0.079281494 -0.00215840619
7781390.695347674 0.07929492 -0.00218778849
7794897.448724362 0.0792697147 -0.00218717637
7808404.202101051 0.0792342201 -0.00217338884
7821910.955477739 0.0792731568 -0.00215656683
7835417.708854428 0.079274714 -0.00215563923
7848924.462231115 0.0792795643 -0.00219931453
7862431.215607804 0.0792612508 -0.00219382136
7875937.968984492 0.0792407691 -0.00219473685
7889444.722361181 0.0792523995 -0.00217079348
7902951.475737869 0.0792568326 -0.00216836086
7916458.229114558 0.0792766213 -0.00218580617
7929964.9824912455 0.079278484 -0.00219764234
7943471.735867934 0.0792674348 -0.00221250928
7956978.489244622 0.0792426169 -0.00221370743
7970485.242621311 0.0792457312 -0.00218172511
7983991.995997999 0.0792580247 -0.00218408345
7997498.749374688 0.0792757198 -0.00219223043
8011005.502751376 0.0792523026 -0.00220260886
8024512.256128064 0.0792631507 -0.00219324813
8038019.009504752 0.0792719647 -0.00222551101
8051525.762881441 0.0792790949 -0.00224785553
8065032.516258129 0.0792464539 -0.00223291083
8078539.269634818 0.0792440549 -0.00221700035
8092046.023011506 0.0792489201 -0.00220154133
8105552.776388194 0.079261139 -0.0022289264
8119059.529764882 0.0792558864 -0.002257952
8132566.283141571 0.0792449191 -0.00224925438
8146073.036518259 0.0792206898 -0.0022217955
8159579.789894948 0.0792552903 -0.00220741052
8173086.543271636 0.0792637318 -0.00222245487
8186593.2966483245 0.0792800933 -0.00225619925
8200100.050025012 0.0792621672 -0.00225534779
8213606.803401701 0.0792400464 -0.00225612032
8227113.556778389 0.0792306438 -0.00225152285
8240620.310155078 0.0792698637 -0.00222083065
8254127.063531766 0.0792594329 -0.00226233038
8267633.8169084545 0.0792458951 -0.00228496944
8281140.570285142 0.0792346671 -0.00226661167
8294647.323661831 0.0792311803 -0.00226108683
8308154.077038519 0.0792431906 -0.00224918779
8321660.830415208 0.0792548954 -0.00225748261
8335167.583791896 0.0792450905 -0.00227674516
8348674.337168585 0.0792200714 -0.00227924064
8362181.090545272 0.0792193785 -0.00226958259
8375687.843921961 0.079242982 -0.00226419582
8389194.597298648 0.0792387128 -0.00228829938
8402701.350675337 0.0792526454 -0.00229344727
8416208.104052026 0.07925082 -0.00230851793
8429714.857428715 0.0792297274 -0.00228972058
8443221.610805403 0.0792284533 -0.00228488236
8456728.364182092 0.0792361423 -0.00229243655
8470235.11755878 0.0792522579 -0.00227333396
8483741.870935468 0.0792545229 -0.00232005934
8497248.624312155 0.0792274326 -0.00232292921
8510755.377688844 0.0792186335 -0.00230723503
8524262.131065533 0.0792276561 -0.00230124709
8537768.884442221 0.0792413503 -0.0022975402
8551275.63781891 0.0792360157 -0.00229886407
8564782.391195599 0.0792272091 -0.00233991095
8578289.144572286 0.0792347938 -0.00232907804
8591795.897948975 0.0792229101 -0.00234316522
8605302.651325662 0.079227522 -0.00231263414
8618809.40470235 0.0792609453 -0.00229920773
8632316.15807904 0.0792441219 -0.00233657868
8645822.911455728 0.0792469829 -0.00235609664
8659329.664832417 0.0792368501 -0.00235784822
8672836.418209106 0.0792105421 -0.00234494521
8686343.171585793 0.0792125016 -0.00234372658
8699849.924962481 0.079237774 -0.0023381738
8713356.678339168 0.0792658627 -0.00235561468
8726863.431715857 0.0792429522 -0.00236506667
8740370.185092546 0.0792294517 -0.00236094394
8753876.938469235 0.0792107582 -0.00234635104
8767383.691845924 0.0792368129 -0.00234344555
8780890.445222612 0.0792405531 -0.00236128154
8794397.1985993 0.0792448223 -0.00237013446
8807903.951975988 0.07924591 -0.00239389879
8821410.705352675 0.0792338327 -0.00237203552
8834917.458729364 0.0792210102 -0.00236745505
8848424.212106053 0.0792264044 -0.00237004366
