! Created with skrf (http://scikit-rf.org).
# Hz S RI R 50.0 
!freq ReS11 ImS11
3000000.0 -0.0854424834 0.00125073374
3013506.7533766883 -0.0854188651 0.00126412511
3027013.5067533767 -0.0853943527 0.00126310764
3040520.260130065 -0.085402444 0.00125555659
3054027.0135067534 -0.0854228139 0.00123802549
3067533.7668834417 -0.0854422674 0.00125514867
3081040.52026013 -0.0854106322 0.00128487218
3094547.2736368184 -0.0854086876 0.00129931537
3108054.0270135067 -0.0853954405 0.0012552077
3121560.780390195 -0.0854050145 0.00128749397
3135067.5337668834 -0.0854364261 0.00128213584
3148574.287143572 -0.0854080766 0.00130015553
3162081.04052026 -0.0854047835 0.0012960264
3175587.7938969485 -0.0853867754 0.00127894897
3189094.547273637 -0.0853963345 0.00127776782
3202601.300650325 -0.0854217634 0.00130134588
3216108.0540270135 -0.0854278952 0.00131682004
3229614.807403702 -0.0854027122 0.00131523714
3243121.56078039 -0.0853918344 0.00131379161
3256628.3141570785 -0.0854068026 0.00130529655
3270135.067533767 -0.0854297578 0.00130874536
3283641.820910455 -0.0854151249 0.00134018902
3297148.5742871435 -0.0854199529 0.00131897849
3310655.327663832 -0.0853783414 0.00133194833
3324162.08104052 -0.0853979439 0.00131362746
3337668.8344172086 -0.0854178891 0.00132321822
3351175.587793897 -0.0854094401 0.00135161052
3364682.3411705852 -0.085412167 0.00134649104
3378189.0945472736 -0.0853862092 0.00134256668
3391695.847923962 -0.085395433 0.00132280646
3405202.6013006503 -0.0854080245 0.00132033764
3418709.3546773386 -0.0854214355 0.00132192648
3432216.108054027 -0.0854057744 0.00136465533
3445722.8614307153 -0.0853926539 0.00136631622
3459229.6148074036 -0.085388869 0.00134615286
3472736.368184092 -0.0854248852 0.00133088708
3486243.1215607803 -0.0854182616 0.0013402839
3499749.8749374687 -0.085398674 0.00136399793
3513256.628314157 -0.0854035094 0.00137828384
3526763.3816908454 -0.0853971466 0.0013659515
3540270.1350675337 -0.0853947625 0.0013462666
3553776.888444222 -0.0854146034 0.00136355532
3567283.6418209104 -0.0854244158 0.00137174805
3580790.3951975987 -0.0854233354 0.00139734033
3594297.148574287 -0.0853762776 0.00139105064
3607803.9019509754 -0.0853974968 0.00137599662
3621310.6553276638 -0.0854114965 0.00138225057
3634817.408704352 -0.0854261145 0.00137949327
3648324.1620810404 -0.0854002312 0.00141093007
3661830.915457729 -0.0853935257 0.00141144649
3675337.668834417 -0.0853950232 0.00138479017
3688844.4222111055 -0.0854109898 0.00137256761
3702351.175587794 -0.0854198113 0.00141588226
3715857.928964482 -0.0854076669 0.00143104326
3729364.6823411705 -0.085367918 0.00141957402
3742871.435717859 -0.0853764936 0.00138762267
3756378.189094547 -0.0853779316 0.00138632033
3769884.9424712355 -0.085423708 0.00140401395
3783391.695847924 -0.0854104087 0.0014234914
3796898.449224612 -0.0853886381 0.00144492171
3810405.2026013006 -0.0853641704 0.00142310886
3823911.955977989 -0.0853925645 0.00139880937
3837418.7093546772 -0.0854100361 0.0014132167
3850925.4627313656 -0.0854083896 0.00143542967
3864432.216108054 -0.0853707865 0.00145843893
3877938.9694847423 -0.0853826925 0.00142895267
3891445.7228614306 -0.0853741392 0.0014277451
3904952.476238119 -0.0854094103 0.00142144179
3918459.2296148073 -0.0854006857 0.00143542548
3931965.9829914956 -0.0854090601 0.00146146875
3945472.736368184 -0.0853730962 0.00145287206
3958979.4897448723 -0.0853781402 0.00144220667
3972486.2431215607 -0.0853987485 0.00143647473
3985992.996498249 -0.0854158625 0.00145358255
3999499.7498749373 -0.0853917673 0.00147264847
4013006.5032516257 -0.0853901654 0.00149369752
4026513.256628314 -0.0853772163 0.00145853194
4040020.0100050024 -0.0853778794 0.00144775619
4053526.7633816907 -0.0853765234 0.00145046855
4067033.5167583795 -0.0854009762 0.00146329403
4080540.2701350674 -0.085395135 0.0014995673
4094047.023511756 -0.0853763223 0.00149936439
4107553.776888444 -0.0853758007 0.001482127
4121060.530265133 -0.0853776783 0.00146425853
4134567.283641821 -0.0854241848 0.00148838165
4148074.0370185096 -0.0853980184 0.00150030048
4161580.7903951975 -0.0853697211 0.00150359294
4175087.5437718863 -0.0853573084 0.00151020905
4188594.297148574 -0.0853596404 0.00146250403
4202101.050525263 -0.0853940248 0.00150202541
4215607.803901951 -0.0853833631 0.00150017696
4229114.55727864 -0.085398525 0.00151299289
4242621.3106553275 -0.0853659809 0.00151486008
4256128.064032016 -0.0853535235 0.00150343194
4269634.817408704 -0.0853858814 0.00149820826
4283141.570785393 -0.085409373 0.00150732521
4296648.324162081 -0.0854005963 0.00152046047
4310155.07753877 -0.0853663012 0.00152081763
4323661.830915458 -0.0853674561 0.00152624375
4337168.584292146 -0.0853762478 0.00151605101
4350675.337668834 -0.0853970721 0.00152326957
4364182.091045523 -0.0854035839 0.00153760891
4377688.844422211 -0.0853644013 0.00154236401
4391195.5977989 -0.0853677243 0.00154407055
4404702.351175588 -0.0853809714 0.00151748175
4418209.104552276 -0.0853834078 0.00152152625
4431715.857928964 -0.0853887498 0.00155696948
4445222.611305653 -0.0853711069 0.00157538196
4458729.364682341 -0.0853706822 0.00156759343
4472236.11805903 -0.0853543803 0.00153884524
4485742.871435718 -0.0853883252 0.00153830438
4499249.6248124065 -0.0853901207 0.00157242874
4512756.378189094 -0.0853909552 0.00159270968
4526263.131565783 -0.0853675082 0.00158050423
4539769.884942471 -0.085364908 0.00155850488
4553276.63831916 -0.0853693336 0.00154942449
4566783.391695848 -0.0853807777 0.0015638253
4580290.145072537 -0.085396789 0.00158230914
4593796.898449224 -0.0853727087 0.00160099671
4607303.651825913 -0.0853597745 0.00159337441
4620810.405202601 -0.0853629187 0.00157050183
4634317.15857929 -0.0853881538 0.00155687332
4647823.911955978 -0.0853701606 0.00158663886
4661330.665332667 -0.0853687301 0.00160975859
4674837.4187093545 -0.0853677541 0.00159790425
4688344.172086043 -0.0853691921 0.00157353189
4701850.925462731 -0.085396722 0.00160635915
4715357.67883942 -0.0853816494 0.00162741903
4728864.432216108 -0.085367538 0.00161804457
4742371.185592797 -0.0853510126 0.00159640098
4755877.9389694845 -0.0853605196 0.00159863522
4769384.692346173 -0.08539664 0.00161282986
4782891.445722861 -0.0853813663 0.00163605413
4796398.19909955 -0.0853635296 0.00163868
4809904.952476238 -0.0853454247 0.00160597241
4823411.705852927 -0.0853608698 0.00159790006
4836918.459229615 -0.0853786692 0.00163001381
4850425.212606303 -0.0853889734 0.00164858205
4863931.965982991 -0.0853508711 0.00165074179
4877438.71935968 -0.0853327513 0.00163910876
4890945.472736368 -0.0853679851 0.00162569049
4904452.226113057 -0.0853712112 0.00162583718
4917958.979489745 -0.0853797123 0.00164775737
4931465.732866433 -0.0853768587 0.00166479801
4944972.486243121 -0.0853475034 0.00165188208
4958479.23961981 -0.0853729099 0.00163914741
4971985.992996498 -0.0853688046 0.00164342334
4985492.746373187 -0.0853843838 0.00165446114
4998999.499749875 -0.0853775665 0.00168617326
5012506.2531265635 -0.0853500441 0.00166780467
5026013.006503251 -0.085346885 0.0016407785
5039519.75987994 -0.0853620395 0.00163388008
5053026.513256628 -0.0853715166 0.00167472672
5066533.266633317 -0.0853862315 0.00169782143
5080040.020010005 -0.0853485093 0.0016820929
5093546.773386694 -0.0853504315 0.00168238778
5107053.526763381 -0.0853526667 0.00167878589
5120560.28014007 -0.0853617936 0.00168645883
5134067.033516759 -0.0853767917 0.00169286178
5147573.786893447 -0.0853632763 0.0017070953
5161080.540270135 -0.085335508 0.00169252721
5174587.293646824 -0.0853443891 0.00169018481
5188094.047023512 -0.0853733569 0.00167429727
5201600.8004002 -0.0853679255 0.001721045
5215107.553776888 -0.0853491947 0.00171372364
5228614.307153577 -0.0853312835 0.0017095136
5242121.060530266 -0.0853446275 0.00169930072
5255627.813906954 -0.0853699446 0.00169430859
5269134.567283642 -0.0853600875 0.00169976009
5282641.32066033 -0.0853502899 0.00172895787
5296148.074037019 -0.0853496343 0.00175113336
5309654.827413707 -0.0853417292 0.00170646678
5323161.580790395 -0.0853406265 0.0017046486
5336668.334167084 -0.0853554159 0.00171463692
5350175.0875437725 -0.0853690654 0.00173618947
5363681.84092046 -0.0853380784 0.00173974282
5377188.594297148 -0.0853282064 0.00171494379
5390695.347673837 -0.0853363201 0.00172426563
5404202.101050526 -0.085369885 0.00173007394
5417708.854427214 -0.0853715986 0.00174884161
5431215.607803902 -0.0853509232 0.00176600995
5444722.3611805905 -0.0853234977 0.00177413109
5458229.114557279 -0.0853392407 0.00174925569
5471735.867933967 -0.0853473246 0.00173402706
5485242.621310655 -0.0853657275 0.00175935379
5498749.374687344 -0.0853811726 0.00177942112
5512256.128064033 -0.0853586197 0.0017972755
5525762.8814407205 -0.0853267163 0.00177052966
5539269.634817408 -0.0853304565 0.0017521953
5552776.388194097 -0.0853539184 0.00175561069
5566283.141570786 -0.0853673816 0.00177256961
5579789.894947474 -0.0853619948 0.00178961083
5593296.648324162 -0.0853278339 0.00178379344
5606803.401700851 -0.0853139237 0.00176915585
5620310.155077539 -0.0853491798 0.00174823904
5633816.908454227 -0.0853712112 0.00177194213
5647323.661830915 -0.085361734 0.00178625644
5660830.415207604 -0.0853277966 0.00180336297
5674337.168584293 -0.0853282288 0.00179055112
5687843.921960981 -0.0853273794 0.00178440486
5701350.6753376685 -0.0853554308 0.00178109319
5714857.428714357 -0.0853593051 0.00180307683
5728364.182091046 -0.0853454918 0.00181990641
5741870.935467734 -0.0853529498 0.00182595861
5755377.688844422 -0.0853232071 0.00181836251
5768884.442221111 -0.0853109509 0.00178382092
5782391.1955977995 -0.0853439569 0.00179658085
5795897.948974487 -0.0853512883 0.0017977861
5809404.702351175 -0.0853398219 0.00184257608
5822911.455727864 -0.085336335 0.00181514467
5836418.209104553 -0.0853112489 0.0018169817
5849924.962481241 -0.0853311718 0.00180348696
5863431.715857929 -0.0853586569 0.00179429038
5876938.469234617 -0.0853387937 0.00181798148
5890445.222611306 -0.0853354707 0.00183886138
5903951.975987994 -0.0853207186 0.00183450989
5917458.729364682 -0.0853111744 0.00180279289
5930965.482741371 -0.0853344426 0.00181262975
5944472.23611806 -0.0853557065 0.00181181706
5957978.9894947475 -0.0853663087 0.00183390849
5971485.742871435 -0.0853404105 0.00186473865
5984992.496248124 -0.0853230357 0.00184380193
5998499.249624813 -0.0853237733 0.00182862335
6012006.003001501 -0.0853292048 0.00182096555
6025512.756378189 -0.085358128 0.00183591759
6039019.509754878 -0.085353069 0.00186641491
6052526.263131566 -0.0853300318 0.00186479709
6066033.016508254 -0.0853209868 0.00183545658
6079539.769884942 -0.0853296816 0.00183070893
6093046.523261631 -0.0853451043 0.00184077886
6106553.27663832 -0.0853484869 0.00184422126
6120060.030015008 -0.0853348151 0.00187369518
6133566.7833916955 -0.0853245556 0.00185682159
6147073.536768384 -0.0853072181 0.0018418805
6160580.290145073 -0.0853359178 0.00183115643
6174087.043521761 -0.0853592753 0.00184316363
6187593.796898449 -0.0853416324 0.00186773867
6201100.550275138 -0.0853258669 0.00187548879
6214607.303651826 -0.0853131637 0.00185767515
6228114.057028514 -0.0853290781 0.00182630692
6241620.810405202 -0.0853689909 0.00183811306
6255127.563781891 -0.0853649229 0.00186460267
6268634.31715858 -0.0853364021 0.00186155958
6282141.070535268 -0.0853344128 0.00184976507
6295647.823911956 -0.0853428915 0.00182543544
6309154.577288644 -0.0853702649 0.00179941789
6322661.330665333 -0.0853867307 0.00181276549
6336168.084042021 -0.0853834897 0.00183575007
6349674.837418709 -0.0853607804 0.00183424144
6363181.590795398 -0.0853493065 0.00180373224
6376688.344172087 -0.0853955224 0.00178122718
6390195.097548774 -0.0854119137 0.00177332154
6403701.850925462 -0.0854056999 0.00178894668
6417208.604302151 -0.0854051113 0.00179427571
6430715.35767884 -0.0853904784 0.0017897404
6444222.111055528 -0.0854039416 0.00173796562
6457728.864432216 -0.0854180604 0.00171565835
6471235.6178089045 -0.0854576677 0.00174821308
6484742.371185593 -0.0854744613 0.00175629708
6498249.124562281 -0.085448496 0.00172847963
6511755.877938969 -0.0854789615 0.00169484853
6525262.631315658 -0.0855046958 0.00168783718
6538769.384692347 -0.0855237246 0.00167364918
6552276.138069035 -0.0855510682 0.00169365702
6565782.891445722 -0.0855552405 0.00169645553
6579289.644822411 -0.0855653808 0.00166022254
6592796.3981991 -0.0855956376 0.00167041481
6606303.151575788 -0.085612841 0.00168919074
6619809.904952476 -0.0856558457 0.00173540018
6633316.658329165 -0.0856492147 0.00175171637
6646823.411705853 -0.0856510252 0.00176415837
6660330.165082541 -0.0856428742 0.00176738878
6673836.918459229 -0.0856767595 0.00179433508
6687343.671835918 -0.085706301 0.001829696
6700850.425212607 -0.0856926888 0.00189442059
6714357.178589295 -0.0856705531 0.00191011722
6727863.931965983 -0.08564464 0.00191880169
6741370.685342671 -0.0856547803 0.00195719767
6754877.43871936 -0.085671179 0.0019526385
6768384.192096048 -0.0856637135 0.00200611143
6781890.945472736 -0.0856407657 0.00202438701
6795397.698849425 -0.0856040567 0.00202716514
6808904.4522261135 -0.085602425 0.00204114127
6822411.205602801 -0.0855965316 0.00204648008
6835917.958979489 -0.0856101811 0.00205208128
6849424.712356178 -0.0855893269 0.00207583723
6862931.465732867 -0.0855457634 0.00209711492
6876438.219109555 -0.0855419561 0.00207273127
6889944.972486243 -0.0855464041 0.00206482364
6903451.725862931 -0.0855470523 0.00208087149
6916958.47923962 -0.0855357125 0.0020968169
6930465.232616308 -0.0855346024 0.00212615496
6943971.985992996 -0.085489586 0.00209552236
6957478.739369685 -0.0854833424 0.00208541309
6970985.492746374 -0.0854977667 0.00207784353
6984492.2461230615 -0.085507229 0.00208443031
6997998.999499749 -0.0855007693 0.00210752152
7011505.752876438 -0.0854798108 0.00210160436
7025012.506253127 -0.0854586959 0.002097202
7038519.259629815 -0.0854622871 0.00208004843
7052026.013006503 -0.0854785293 0.00208531623
7065532.766383192 -0.0854715928 0.002104179
7079039.51975988 -0.0854680166 0.00211385125
7092546.273136568 -0.0854348019 0.00210637972
7106053.026513256 -0.0854210854 0.00207465328
7119559.779889945 -0.0854467824 0.00209301035
7133066.533266634 -0.0854674727 0.00211181794
7146573.286643322 -0.0854402408 0.00211800588
7160080.0400200095 -0.0854270682 0.00211565103
7173586.793396698 -0.0854214355 0.0020914739
7187093.546773387 -0.0854305476 0.00208441122
7200600.300150075 -0.085439764 0.0020936674
7214107.053526764 -0.0854526535 0.00211616955
7227613.806903452 -0.0854177698 0.00213010935
7241120.5602801405 -0.085402891 0.00209623831
7254627.313656828 -0.0853927508 0.00210358296
7268134.067033517 -0.085415177 0.00209821831
7281640.820410205 -0.085425213 0.00211197254
7295147.573786894 -0.0854418203 0.00212760596
7308654.327163582 -0.0854067057 0.00214051851
7322161.080540271 -0.0853832513 0.00210624631
7335667.833916958 -0.0853935704 0.00210385513
7349174.587293647 -0.0854141787 0.00209926907
7362681.340670335 -0.0854182094 0.00213568611
7376188.094047024 -0.0854089558 0.00214461912
7389694.847423712 -0.0853734165 0.00214086333
7403201.600800401 -0.0853789151 0.00212833402
7416708.3541770885 -0.0853801891 0.00211843778
7430215.107553777 -0.085421212 0.00212279847
7443721.860930465 -0.0854159072 0.00216351799
7457228.614307154 -0.0853983462 0.00217178906
7470735.367683842 -0.0853897631 0.00214102562
7484242.121060531 -0.0853939503 0.00212492142
7497748.8744372185 -0.0853997245 0.00215346296
7511255.627813907 -0.0854020566 0.00216371543
7524762.381190595 -0.0853763893 0.00217338698
7538269.134567284 -0.085362874 0.00214647199
7551775.887943972 -0.0853880495 0.00212990213
7565282.641320661 -0.085400179 0.00215905393
7578789.394697349 -0.0854009613 0.00219301926
7592296.148074037 -0.0853741318 0.0021875794
7605802.901450725 -0.0853720158 0.00217973301
7619309.654827414 -0.0853723884 0.00215421361
7632816.408204102 -0.0853767246 0.00214086589
7646323.161580791 -0.0853849426 0.00217028009
7659829.914957479 -0.0853823945 0.00219792314
7673336.668334167 -0.0853592902 0.00220739841
7686843.421710855 -0.0853448883 0.00219316594
7700350.175087544 -0.0853694081 0.00216670916
7713856.928464232 -0.0853731111 0.00217536022
7727363.681840921 -0.0853853673 0.00220123259
7740870.435217609 -0.0853804275 0.00222444581
7754377.1885942975 -0.0853567421 0.00221415772
7767883.941970985 -0.085344471 0.00220912811
7781390.695347674 -0.0853765532 0.00218895893
7794897.448724362 -0.0853881016 0.00221134024
7808404.202101051 -0.0853874162 0.00220908457
7821910.955477739 -0.0853719935 0.00223489548
7835417.708854428 -0.0853592232 0.00223433645
7848924.462231115 -0.0853472948 0.00220421469
7862431.215607804 -0.0853656456 0.00218000822
7875937.968984492 -0.0853925273 0.00222038757
7889444.722361181 -0.0853951275 0.00223827222
7902951.475737869 -0.0853699148 0.00225176243
7916458.229114558 -0.0853409916 0.00224130624
7929964.9824912455 -0.0853529498 0.00221069413
7943471.735867934 -0.0853631794 0.00219673663
7956978.489244622 -0.0853753388 0.00222656294
7970485.242621311 -0.0853698999 0.00226775743
7983991.995997999 -0.0853587091 0.00225766771
7997498.749374688 -0.0853280649 0.00224163267
8011005.502751376 -0.0853653774 0.00225330587
8024512.256128064 -0.085345313 0.00226819725
8038019.009504752 -0.0853455588 0.00225442695
8051525.762881441 -0.0853473023 0.00224104105
8065032.516258129 -0.0853698477 0.00225878833
8078539.269634818 -0.0853727311 0.00227800664
8092046.023011506 -0.0853446275 0.00228026323
8105552.776388194 -0.0853402168 0.00226047542
8119059.529764882 -0.0853400752 0.00225710426
8132566.283141571 -0.0853776112 0.002243208
8146073.036518259 -0.0853717253 0.00227089506
8159579.789894948 -0.0853590369 0.00229947432
8173086.543271636 -0.0853132755 0.00228321762
8186593.2966483245 -0.0853562951 0.00226092036
8200100.050025012 -0.0853502378 0.00225846423
8213606.803401701 -0.0853693336 0.00228824653
8227113.556778389 -0.085350804 0.00229851902
8240620.310155078 -0.0853174254 0.00230178377
8254127.063531766 -0.0853298306 0.00228053192
8267633.8169084545 -0.0853396207 0.00227675564
8281140.570285142 -0.0853613615 0.00228869729
8294647.323661831 -0.0853604153 0.00231547607
8308154.077038519 -0.085324429 0.00232428359
8321660.830415208 -0.0853421167 0.00229430571
8335167.583791896 -0.0853353664 0.00229628244
8348674.337168585 -0.0853649378 0.00228703627
8362181.090545272 -0.0853536278 0.00233371789
8375687.843921961 -0.0853446648 0.00233873096
8389194.597298648 -0.0853194296 0.00234713312
8402701.350675337 -0.0853405818 0.0023152933
8416208.104052026 -0.0853604972 0.00231338269
8429714.857428715 -0.0853632092 0.00232606987
8443221.610805403 -0.0853515863 0.00235309848
8456728.364182092 -0.0853416994 0.0023605607
8470235.11755878 -0.0853331983 0.00233265688
8483741.870935468 -0.0853232518 0.00232184818
8497248.624312155 -0.085352622 0.0023210207
8510755.377688844 -0.0853579789 0.0023535206
8524262.131065533 -0.0853443369 0.00237374171
8537768.884442221 -0.0853376165 0.00236439728
8551275.63781891 -0.0853328258 0.00234463764
8564782.391195599 -0.085329093 0.00232701655
8578289.144572286 -0.0853546858 0.00234982371
8591795.897948975 -0.0853526518 0.00234711985
8605302.651325662 -0.0853527188 0.00238368614
8618809.40470235 -0.0853227228 0.00237861346
8632316.15807904 -0.085334383 0.00236020098
8645822.911455728 -0.0853254944 0.00234961556
8659329.664832417 -0.0853432938 0.00233935937
8672836.418209106 -0.0853591859 0.00237099058
8686343.171585793 -0.085338667 0.00238240417
8699849.924962481 -0.0853293836 0.00240587001
8713356.678339168 -0.0853271782 0.00237524277
8726863.431715857 -0.0853191763 0.00235808105
8740370.185092546 -0.0853431448 0.00237785373
8753876.938469235 -0.0853370056 0.00240239594
8767383.691845924 -0.0853324234 0.0024260229
8780890.445222612 -0.0853269026 0.00238173991
8794397.1985993 -0.0853159726 0.00239180285
8807903.951975988 -0.0853090286 0.00238084234
8821410.705352675 -0.0853369087 0.00238571479
8834917.458729364 -0.0853465945 0.00242021843
8848424.212106053 -0.0853223726 0.00242944015
